2020-07-16
1、演示版本
	仅演示液晶屏随着温度升高风机接连开启

水压调试
美仪的0-1Mpa量程。M20*1.5加一个M20*1.5转G1/2的接头

修改测量单位，小数点单位，485地址
步骤如下：
1、解锁
01 06 00 0A 38 79 7B EA       01 06 00 0A 38 79 7B EA 
2、设置测量单位为KPA
01 06 00 02 00 01 E9 CA       01 06 00 02 00 01 E9 CA 
3、设置小数点位数为0
01 06 00 03 00 00 79 CA    	01 06 00 03 00 00 79 CA	
4、设置地址为0x11=17
01 06 00 00 00 11 49 C6 	01 06 00 00 00 11 49 C6 

读取水压：
发送：11 03 00 04 00 01 C7 5B 
返回：11 03 02 00 08 78 41 //水压8kpa

电表调试
亚东电气的7P三相四线电表,调试互感器配的是75/5的
通过屏幕调节地址为24 = 0x18
获取电量：
发送  18 04 00 10 00 02 72 07 
返回 18 04 04 00 00 00 00 73 45  。
	00 00 00 00：浮点数据。
	
	示例：
	读取A相电压。
	发送：18 04 00 00 00 02 73 C2 
	返回：18 04 04 43 67 1A 26 5D A4   //43 67 1A 26表示231.1021V
	

水表调试
宁波水表。
表盘上二维码的后两位为出厂的RS485地址。表盘数值逗号后边的红色数字为小数位。
地址分配：00:485地址。01 02 ：水表数值
通过串口修改地址为0x19=25
设置地址
发送：3B 06 00 00 00 19 4D 5A 
返回：19 06 00 00 00 19 4B D8 

读水表值：
发送：19 03 00 01 00 02 96 13 
返回：19 03 04 00 00 00 10 63 FE 	//00000010表示0.16m³

	
	

氨气调试
建大科仁的0-100ppm氨气，单氨气
通过调试软件，设置地址为11=0x0b
获取氨气浓度
发送：0B 03 00 02 00 01 25 60
返回：0B 03 02 00 00 20 45
	氨气浓度：00
单氨气设备可以读取 00 寄存器或者 02 寄存器， 三合一设备只能读取 02 寄存器）

PH调试
冀欧速的传感器，淘宝隆运电子2020。NPT3/4
设置地址：
通过串口发送命令将地址从01改为0x13=19
发送：01 06 00 00 00 13 C8 07 
返回：01 06 02 00 13 F9 45 
读取PH：
发送：13 03 00 00 00 01 87 78 
返回：13 03 02 02 F4 00 A0 	//PH为0x2F4 = 756=7.56





